 ****** HSPICE -- F-2011.09-SP2 64-BIT (Feb 27 2012) linux ******               
  Copyright (C) 2011 Synopsys, Inc. All Rights Reserved.                        
  Unpublished-rights reserved under US copyright laws.
  This program is protected by law and is subject to the
  terms and conditions of the license agreement from Synopsys.
  Use of this program is your acceptance to be bound by the
  license agreement. HSPICE is the trademark of Synopsys, Inc.
  Input File: mux.sp                                                            
  Command line options: -i mux.sp -o mux.lis
 lic:  
 lic: FLEXlm: v10.8 
 lic: USER:   boyangwu             HOSTNAME: scln0.rc.usf.edu 
 lic: HOSTID:                      PID:      166381 
 lic: Using FLEXlm license file: 
 lic: 27000@license0.rc.usf.edu 
 lic: Checkout 1 hspice 
 lic: License/Maintenance for hspice will expire on 18-jul-2021/2019.06 
 lic: 1(in_use)/50(total) FLOATING license(s) on SERVER license0.rc.usf.edu 
 lic:   
 scientific notation:
 a=10**-18  f=10**-15  p=10**-12  n=10**-9  u=10**-6
 m=10**-3   k=10**3    x=10**6    g=10**9 


 circuit parameter definitions
  parameter          =  value 

     0:tr                                                      =   0.           
     0:tf                                                      =   0.           
     0:tpdr                                                    =   0.           
     0:tpdf                                                    =   0.           




 constants  - tnom         kt           vt           gapsi        ni
            298.15000    4.1163e-21    25.69184m     1.11562    1.2565e+16 
1****** HSPICE -- F-2011.09-SP2 64-BIT (Feb 27 2012) linux ******               
 ******  
 **----------------------------------------------------------

  ******  mos   model parameters tnom=  25.000 temp=  25.000 *****
 ***************************************************************************
 ***        model parameters  model name:   0:nmos     model type:nmos   ***
 ***************************************************************************

   *** general parameters ***
    deriv=   0.           

   ***  level 49  model parameters  ***

      hspver=    2006.03               level=         49         
     version=        3.1            paramchk=          0         
      apwarn=          1                lite=          0         
      vgslim=          0             binUnit=          1         
      capMod=          2               xpart=        0.5         
      mobMod=          1              nqsMod=          0         
      stiMod=          0                 elm=          5         
    sfvtflag=          0                 tox=    4.1e-09 meter   
          xj=      1e-07 meter       binflag=          0         
        lmin=          0 meter          lmax=          0 meter   
        wmin=          0 meter          wmax=          0 meter   
        lref=          0 meter          wref=          0 meter   
        lint=1.25702e-08 meter          wint=9.45863e-09 meter   
       lmult=          1               wmult=          1         
          ll=          0                 lln=          1         
          lw=          0                 lwn=          1         
         lwl=          0                  wl=          0         
         wln=          1                  ww=          0         
         wwn=          1                 wwl=          0         
         dwg=-1.20462e-09 m/V             dwb=9.66422e-09 m/V^1/2 
          xl=     -2e-08                  xw=     -1e-08         
          a0=     1.9002                 ags=   0.412538 V^-1    
          b0=-1.06835e-08 meter            b1=     -1e-07 meter   
        keta=0.000250589 V^-1           voff= -0.0946268 V       
       ngate=          0 cm^-3           vbx=          0 V       
         vbm=         -3 V                xt=   1.55e-07 meter   
        vth0=   0.383282 V               nch= 2.3549e+17 cm^-3   
        nsub=      6e+16 cm^-3           nlx=1.55647e-07 meter   
      gamma1=          0 V^-1/2       gamma2=          0 V^-1/2  
          k1=   0.591571 V^1/2            k2=  0.0024327         
          k3=      0.001                 k3b=    2.88171 V^-1    
          w0=      1e-07 meter          dvt0=    1.86718         
        dvt1=   0.507095                dvt2= -0.0135063 V^-1    
       dvt0w=          0 meter^-1      dvt1w=          0 meter^-1
       dvt2w=          0 V^-1           dsub= 0.00275603         
        eta0= 0.00137586                etab=0.000137659 V^-1    
          u0=    275.556 cm^2/V/sec         ua=-1.15024e-09 m/V     
          ub=2.01415e-18 (m/V)^2          uc=4.21711e-11 V^-1    
        vsat=     100226 m/sec            a1= 0.00043771 v^-1    
          a2=   0.958432               delta=       0.01 V       
        rdsw=        105 ohm-um         prwg=        0.5 V^-1    
        prwb=       -0.2 V^-1/2           wr=          1         
        pclm=    0.86502             pdiblc1=   0.238815         
     pdiblc2= 0.00395731             pdiblcb=       -0.1 V^-1    
      pscbe1=6.14039e+10 V/m          pscbe2=5.82299e-08 V/m     
       drout=   0.728508                pvag=   0.171092         
     nfactor=    2.37614                cdsc=    0.00024 f/m^2   
       cdscb=          0 f/V/m^2       cdscd=          0 f/V/m^2 
         cit=          0 f/m^2        alpha0=          0 m/V     
       beta0=         30 V               dlc=1.25702e-08 meter   
         dwc=9.45863e-09 meter           clc=      1e-07 meter   
         cle=        0.6                cgso=   7.32e-10 f/m     
        cgdo=   7.32e-10 f/m            cgbo=      1e-12 f/m     
        cgsl=          0 f/m            cgdl=          0 f/m     
      ckappa=        0.6                  cf=          0 f/m     
        tnom=     300.15 K               kt1=      -0.11 V       
        kt1l=          0                 kt2=      0.022         
         ute=       -1.5                 ua1=   4.31e-09 m/V     
         ub1=  -7.61e-18 (m/V)^2         uc1=   -5.6e-11 m/V^2   
          at=      33000 m/s             prt=          0         
         using Berkeley noise model       noiMod=          1         
        noia=      1e+20                noib=      50000         
        noic=   -1.4e-12                  em=    4.1e+07         
          ef=          1                  af=          1         
          kf=          0              gdsnoi=-1.23457e-29         
         using Hspice diodes            using ACM 
         acm=         0                 hdif=         0 meter    
        ldif=         0 meter             js=         0 amp/m^2  
         jsw=         0 amp/m            xti=         0          
           n=         1                   cj=0.000977546 f/m^2    
          mj=  0.361111                   pb=  0.722413 V        
        cjsw=2.24481e-10 f/m             mjsw=       0.1          
         php=  0.722413 V               pbsw (not used)           
      cjgate=2.24481e-10 f/m            cjswg (not used)           
       mjswg (not used)                 pbswg (not used)           
       lketa=-0.00947318               wketa= 0.00102998         
       pketa= 0.00132978               pvth0= -0.0014684         
         pk2= 0.00085306               peta0=     0.0001         
         pu0=  -0.203478                 pua=-2.37215e-11         
         pub=4.74506e-25               pvsat=    901.673         
       prdsw=  -0.688879         
 ***************************************************************************
 ***        model parameters  model name:   0:pmos     model type:pmos   ***
 ***************************************************************************

   *** general parameters ***
    deriv=   0.           

   ***  level 49  model parameters  ***

      hspver=    2006.03               level=         49         
     version=        3.1            paramchk=          0         
      apwarn=          1                lite=          0         
      vgslim=          0             binUnit=          1         
      capMod=          2               xpart=        0.5         
      mobMod=          1              nqsMod=          0         
      stiMod=          0                 elm=          5         
    sfvtflag=          0                 tox=    4.1e-09 meter   
          xj=      1e-07 meter       binflag=          0         
        lmin=          0 meter          lmax=          0 meter   
        wmin=          0 meter          wmax=          0 meter   
        lref=          0 meter          wref=          0 meter   
        lint=2.55821e-08 meter          wint=          0 meter   
       lmult=          1               wmult=          1         
          ll=          0                 lln=          1         
          lw=          0                 lwn=          1         
         lwl=          0                  wl=          0         
         wln=          1                  ww=          0         
         wwn=          1                 wwl=          0         
         dwg=-2.00413e-08 m/V             dwb=1.03981e-08 m/V^1/2 
          xl=     -2e-08                  xw=     -1e-08         
          a0=    1.64232                 ags=   0.393488 V^-1    
          b0=1.14955e-06 meter            b1=3.50869e-06 meter   
        keta=  0.0146913 V^-1           voff=  -0.102544 V       
       ngate=          0 cm^-3           vbx=          0 V       
         vbm=         -3 V                xt=   1.55e-07 meter   
        vth0=  -0.407799 V               nch= 4.1589e+17 cm^-3   
        nsub=      6e+16 cm^-3           nlx=7.08582e-08 meter   
      gamma1=          0 V^-1/2       gamma2=          0 V^-1/2  
          k1=   0.581505 V^1/2            k2=  0.0273445         
          k3=          0                 k3b=    10.7067 V^-1    
          w0=      1e-06 meter          dvt0=   0.542739         
        dvt1=   0.349376                dvt2=    0.08174 V^-1    
       dvt0w=          0 meter^-1      dvt1w=          0 meter^-1
       dvt2w=          0 V^-1           dsub=    0.63027         
        eta0=  0.0276906                etab= -0.0693376 V^-1    
          u0=    116.609 cm^2/V/sec         ua= 1.5639e-09 m/V     
          ub=      1e-21 (m/V)^2          uc=     -1e-10 V^-1    
        vsat=     182617 m/sec            a1=   0.474966 v^-1    
          a2=    0.31182               delta=       0.01 V       
        rdsw=    309.922 ohm-um         prwg=        0.5 V^-1    
        prwb=       -0.5 V^-1/2           wr=          1         
        pclm=    1.32459             pdiblc1=          0         
     pdiblc2=  0.0136588             pdiblcb=     -0.001 V^-1    
      pscbe1=1.00528e+10 V/m          pscbe2=2.90349e-09 V/m     
       drout=0.000778026                pvag=    3.20271         
     nfactor=    1.92388                cdsc=    0.00024 f/m^2   
       cdscb=          0 f/V/m^2       cdscd=          0 f/V/m^2 
         cit=          0 f/m^2        alpha0=          0 m/V     
       beta0=         30 V               dlc=2.55821e-08 meter   
         dwc=          0 meter           clc=      1e-07 meter   
         cle=        0.6                cgso=   6.57e-10 f/m     
        cgdo=   6.57e-10 f/m            cgbo=      1e-12 f/m     
        cgsl=          0 f/m            cgdl=          0 f/m     
      ckappa=        0.6                  cf=          0 f/m     
        tnom=     300.15 K               kt1=      -0.11 V       
        kt1l=          0                 kt2=      0.022         
         ute=       -1.5                 ua1=   4.31e-09 m/V     
         ub1=  -7.61e-18 (m/V)^2         uc1=   -5.6e-11 m/V^2   
          at=      33000 m/s             prt=          0         
         using Berkeley noise model       noiMod=          1         
        noia=    9.9e+18                noib=       2400         
        noic=    1.4e-12                  em=    4.1e+07         
          ef=          1                  af=          1         
          kf=          0              gdsnoi=-1.23457e-29         
         using Hspice diodes            using ACM 
         acm=         0                 hdif=         0 meter    
        ldif=         0 meter             js=         0 amp/m^2  
         jsw=         0 amp/m            xti=         0          
           n=         1                   cj=0.00118422 f/m^2    
          mj=  0.413121                   pb=  0.855252 V        
        cjsw=1.69663e-10 f/m             mjsw=  0.242466          
         php=  0.855252 V               pbsw (not used)           
      cjgate=1.69663e-10 f/m            cjswg (not used)           
       mjswg (not used)                 pbswg (not used)           
       lketa= 0.00587759               wketa= 0.00249485         
       pketa=  0.0022305               pvth0=0.000841403         
         pk2= 0.00147551               peta0=     0.0001         
         pu0=   -1.84325                 pua=-6.92569e-11         
         pub=      1e-21               pvsat=         50         
       prdsw=    9.92224         
  **info** (mux.sp:18) DC voltage reset to initial transient source value              in source        0:vin                 new dc=  0.0000D+00
 

 Warning: Pd = 0 is less than W.
 Model:    0:nmos
 W = 1.7e-07, L = 1.6e-07

1****** HSPICE -- F-2011.09-SP2 64-BIT (Feb 27 2012) linux ******               
 ******  
 **----------------------------------------------------------

  ******  circuit element summary tnom=  25.000 temp=  25.000 *****


 **** independent sources

     name         node1        node2      dc volt    ac mag    ac phase    type
  vdd  vdd               0                    1.8000     0.         0.      dc   
  vin  in                0                    0.         0.         0.      pulse
             initial value     0.     
             pulsed value.     1.8000 
             delay time...   500.0000p
             risetime.....   100.0000p
             falltime.....   100.0000p
             width........    10.0000n
             period.......    20.0000n

  vin1  in1               0                    0.         0.         0.      pulse
             initial value     0.     
             pulsed value.     1.8000 
             delay time...   500.0000p
             risetime.....   100.0000p
             falltime.....   100.0000p
             width........     5.0000n
             period.......    10.0000n

  vin2  in2               0                    0.         0.         0.      pulse
             initial value     0.     
             pulsed value.     1.8000 
             delay time...     3.0000n
             risetime.....   100.0000p
             falltime.....   100.0000p
             width........     5.0000n
             period.......    10.0000n



 **** mosfets


 **** BSIM3v3 Model (Level49 or Level53)
  
  
                                                              
 element name        0:m0       0:m1       0:m2       0:m3    
 drain               0:out      0:out      0:out      0:out   
 gate                0:n        0:in       0:in       0:n     
 source              0:in1      0:in1      0:in2      0:in2   
 bulk                0:vdd      0:0        0:vdd      0:0     
 model               0:nmos     0:pmos     0:nmos     0:pmos  
 w eff             151.0827n  170.0000n  151.0827n  170.0000n 
 l eff             134.8597n  108.8357n  134.8597n  108.8357n 
 rd eff              0.         0.         0.         0.      
 rs eff              0.         0.         0.         0.      
 cdsat               0.         0.         0.         0.      
 cssat               0.         0.         0.         0.      
 capbd               0.         0.         0.         0.      
 capbs               0.         0.         0.         0.      
 temp               25.0000    25.0000    25.0000    25.0000  
 aic                                                          
 nf                  1.0000     1.0000     1.0000     1.0000  
 sa                  0.         0.         0.         0.      
 sb                  0.         0.         0.         0.      
 sd                  0.         0.         0.         0.      
 saeff               0.         0.         0.         0.      
 sbeff               0.         0.         0.         0.      
 mulu0               1.0000     1.0000     1.0000     1.0000  
 mulua               1.0000     1.0000     1.0000     1.0000  
 mulub               1.0000     1.0000     1.0000     1.0000  
  
  
                                        
 element name        0:m4       0:m5    
 drain               0:n        0:n     
 gate                0:in       0:in    
 source              0:vdd      0:0     
 bulk                0:vdd      0:0     
 model               0:pmos     0:nmos  
 w eff             170.0000n  151.0827n 
 l eff             108.8357n  134.8597n 
 rd eff              0.         0.      
 rs eff              0.         0.      
 cdsat               0.         0.      
 cssat               0.         0.      
 capbd               0.         0.      
 capbs               0.         0.      
 temp               25.0000    25.0000  
 aic                                    
 nf                  1.0000     1.0000  
 sa                  0.         0.      
 sb                  0.         0.      
 sd                  0.         0.      
 saeff               0.         0.      
 sbeff               0.         0.      
 mulu0               1.0000     1.0000  
 mulua               1.0000     1.0000  
 mulub               1.0000     1.0000  
  
  
      
 **info** set option symb=1 internally to help for convergence.
 *****************************************************************
 ******  option summary
 ******
 runlvl  = 3         bypass  = 2         
1****** HSPICE -- F-2011.09-SP2 64-BIT (Feb 27 2012) linux ******               
 ******  
 **----------------------------------------------------------

  ******  temperature-adjusted values tnom=  25.000 temp=  25.000 *****

 constants  - temp             kt               vt               gapsi            ni
            298.1500         4.116e-21         25.6918m          1.1156         1.256e+16      


 *** mosfet element parameters
 name             rd eff           rs eff           cdsat            cssat              vto                beta


        0:m0                  0.               0.               0.               0.             311.2135m        571.8340u      
        0:m1                  0.               0.               0.               0.            -362.3225m        332.2030u      
        0:m2                  0.               0.               0.               0.             311.2135m        571.8340u      
        0:m3                  0.               0.               0.               0.            -362.3225m        332.2030u      
        0:m4                  0.               0.               0.               0.            -362.3225m        332.2030u      
        0:m5                  0.               0.               0.               0.             311.2135m        571.8340u      
1****** HSPICE -- F-2011.09-SP2 64-BIT (Feb 27 2012) linux ******               
 ******  
 **----------------------------------------------------------

  ******  operating point information tnom=  25.000 temp=  25.000 *****
 ***** operating point status is voltage   simulation time is     0.     
    node    =voltage      node    =voltage      node    =voltage

 +0:in      =   0.      0:in1     =   0.      0:in2     =   0.     
 +0:n       =   1.8000  0:out     =   6.4979n 0:vdd     =   1.8000 

 ******  
 **----------------------------------------------------------

  ******  transient analysis tnom=  25.000 temp=  25.000 *****
 tr=   2.5650n  targ=   3.0857n   trig= 520.6996p
 tf=  -7.5670n  targ= 553.8731p   trig=   8.1208n
 tpdr=  -7.5978n  targ=   3.0522n   trig=  10.6500n
